
T14F4 000:706 SEGGER J-Link V4.15n (beta) Log File (0002ms, 0705ms total)
T14F4 000:706 DLL Compiled: Jun 18 2010 19:55:09 (0002ms, 0705ms total)
T14F4 000:706 Logging started @ 2014-03-03 12:50 (0002ms, 0705ms total)
T14F4 000:708 JLINK_SetWarnOutHandler(...) (0000ms, 0707ms total)
T14F4 000:708 JLINK_OpenEx(...)
Firmware: J-Link ARM V8 compiled May 20 2010 17:07:46
Hardware: V8.00
S/N: 17935099
Feature(s): RDI,FlashDL,FlashBP,JFlash  returns O.K. (0134ms, 0707ms total)
T14F4 000:842 JLINK_SetErrorOutHandler(...) (0000ms, 0841ms total)
T14F4 000:842 JLINK_ExecCommand("ProjectFile = "E:\STM32\NumRecognize\USER\JLinkSettings.ini"", ...)  returns 0x00 (0000ms, 0841ms total)
T14F4 000:843 JLINK_ExecCommand("DisableConnectionTimeout", ...)  returns 0x00 (0000ms, 0841ms total)
T14F4 000:844 JLINK_TIF_Select(JLINKARM_TIF_SWD)  returns 0x00 (0001ms, 0841ms total)
T14F4 000:846 JLINK_SetSpeed(10000) (0001ms, 0842ms total)
T14F4 000:847 JLINK_GetHardwareVersion()  returns 0x13880 (0000ms, 0843ms total)
T14F4 000:847 JLINK_GetDLLVersion()  returns 41514 (0000ms, 0843ms total)
T14F4 000:847 JLINK_GetFirmwareString(...) (0000ms, 0843ms total)
T14F4 000:847 JLINK_GetDLLVersion()  returns 41514 (0000ms, 0843ms total)
T14F4 000:847 JLINK_GetCompileDateTime() (0000ms, 0843ms total)
T14F4 000:847 JLINK_GetFirmwareString(...) (0000ms, 0843ms total)
T14F4 000:847 JLINK_GetHardwareVersion()  returns 0x13880 (0000ms, 0843ms total)
T14F4 000:847 JLINK_Reset() >0x108 TIF>Found SWD-DP with ID 0x1BA01477 >0x33 TIF> >0x33 TIF> >0x35 TIF> >0x33 TIF> >0x35 TIF> >0x33 TIF> >0x33 TIF> >0x9B TIF> >0x9B TIF> >0x1D7 TIF> >0x13A TIF> >0x13A TIF>TPIU fitted. >0x13A TIF> >0x13A TIF>  FPUnit: 6 code (BP) slots and 2 literal slots >0x13A TIF> >0x13A TIF> (0027ms, 0843ms total)
T14F4 000:874 JLINK_JTAG_StoreRaw(..., 0x108 Bits)  returns 0x00 (0000ms, 0870ms total)
T14F4 000:874 JLINK_JTAG_GetU32(BitPos = 227) >0x108 TIF>  returns 0x1BA01477 (0001ms, 0870ms total)
T14F4 000:875 JLINK_GetDebugInfo(0x100) -- Value=0xE00FF003  returns 0x00 (0000ms, 0871ms total)
T14F4 000:875 JLINK_ReadMem (0xE00FF000, 0x0018 Bytes, ...) -- CPU_ReadMem(24 bytes @ 0xE00FF000) -- Data:  03 F0 F0 FF 03 20 F0 FF 03 30 F0 FF 03 10 F0 FF ...  returns 0x00 (0001ms, 0871ms total)
T14F4 000:876 JLINK_ReadMemU32(0xE000ED00, 0x0001 Items, ...) -- CPU_ReadMem(4 bytes @ 0xE000ED00) -- Data:  31 C2 1F 41  returns 0x01 (0000ms, 0872ms total)
T14F4 000:877 JLINK_Halt()  returns 0x00 (0000ms, 0872ms total)
T14F4 000:877 JLINK_IsHalted()  returns TRUE (0000ms, 0872ms total)
T14F4 000:877 JLINK_ReadMemU32(0xE000EDF0, 0x0001 Items, ...) -- CPU_ReadMem(4 bytes @ 0xE000EDF0) -- Data:  03 00 03 00  returns 0x01 (0001ms, 0872ms total)
T14F4 000:878 JLINK_WriteU32(0xE000EDF0, 0xA05F0003) -- CPU_WriteMem(4 bytes @ 0xE000EDF0)  returns 0x00 (0000ms, 0873ms total)
T14F4 000:878 JLINK_WriteU32(0xE000EDFC, 0x01000000) -- CPU_WriteMem(4 bytes @ 0xE000EDFC)  returns 0x00 (0001ms, 0873ms total)
T14F4 000:879 JLINK_ReadMemU32(0xE0002000, 0x0001 Items, ...) -- CPU_ReadMem(4 bytes @ 0xE0002000) -- Data:  60 02 00 00  returns 0x01 (0001ms, 0874ms total)
T14F4 000:880 JLINK_ReadMemU32(0xE0001000, 0x0001 Items, ...) -- CPU_ReadMem(4 bytes @ 0xE0001000) -- Data:  01 00 00 40  returns 0x01 (0000ms, 0875ms total)
T14F4 000:881 JLINK_ExecCommand("Device = STM32F103RB", ...)
                JLINK_ExecCommand("map ram 0x20000000 - 0x20004FFF", ...)  returns 0x00 (0000ms, 0000ms total)
                JLINK_AddMirrorAreaEx(Addr = 0x00000000, Size = 0x00000000) (0000ms, 0000ms total)
                returns 0x00 (0000ms, 0875ms total)
T14F4 000:881 JLINK_GetHWStatus(...)  returns 0x00 (0001ms, 0875ms total)
T14F4 000:882 JLINK_GetNumBPUnits(Type = 0xFFFFFF00) >0x108 TIF>Found SWD-DP with ID 0x1BA01477 >0x33 TIF> >0x33 TIF> >0x35 TIF> >0x33 TIF> >0x35 TIF> >0x33 TIF> >0x33 TIF> >0x9B TIF> >0x9B TIF> >0x1D7 TIF> >0x13A TIF> >0x13A TIF>TPIU fitted. >0x13A TIF> >0x13A TIF>  FPUnit: 6 code (BP) slots and 2 literal slots >0x13A TIF> >0x13A TIF>  returns 0x06 (0017ms, 0876ms total)
T14F4 000:899 JLINK_GetNumBPUnits(Type = 0xF0)  returns 0x800 (0000ms, 0893ms total)
T14F4 000:899 JLINK_GetNumWPUnits()  returns 0x04 (0000ms, 0893ms total)
T14F4 000:899 JLINK_GetSpeed()  returns 0xFA0 (0000ms, 0893ms total)
T14F4 000:899 JLINK_ReadMemU32(0xE000E004, 0x0001 Items, ...) -- CPU_ReadMem(4 bytes @ 0xE000E004) -- Data:  01 00 00 00  returns 0x01 (0001ms, 0893ms total)
T14F4 000:900 JLINK_WriteMem(0xE0001000, 0x001C Bytes, ...) -- Data:  01 00 00 00 00 00 00 00 00 00 00 00 00 00 00 00 ... -- CPU_WriteMem(28 bytes @ 0xE0001000)  returns 0x1C (0001ms, 0894ms total)
T14F4 000:901 JLINK_ReadMem (0xE0001000, 0x001C Bytes, ...) -- CPU_ReadMem(28 bytes @ 0xE0001000) -- Data:  01 00 00 40 00 00 00 00 00 00 00 00 00 00 00 00 ...  returns 0x00 (0001ms, 0895ms total)
T14F4 000:902 JLINK_ReadReg(R15)  returns 0x08000104 (0000ms, 0896ms total)
T14F4 000:902 JLINK_ReadReg(XPSR)  returns 0x01000000 (0000ms, 0896ms total)
T14F4 001:717 JLINK_SetResetType(JLINKARM_RESET_TYPE_NORMAL)  returns JLINKARM_RESET_TYPE_NORMAL (0000ms, 0896ms total)
T14F4 001:717 JLINK_Reset() >0x108 TIF>Found SWD-DP with ID 0x1BA01477 >0x33 TIF> >0x33 TIF> >0x35 TIF> >0x33 TIF> >0x35 TIF> >0x33 TIF> >0x33 TIF> >0x9B TIF> >0x9B TIF> >0x1D7 TIF> >0x13A TIF> >0x13A TIF>TPIU fitted. >0x13A TIF> >0x13A TIF>  FPUnit: 6 code (BP) slots and 2 literal slots >0x13A TIF> >0x13A TIF> (0033ms, 0896ms total)
T14F4 001:750 JLINK_ReadReg(R15)  returns 0x08000104 (0000ms, 0929ms total)
T14F4 001:750 JLINK_ReadReg(XPSR)  returns 0x01000000 (0000ms, 0929ms total)
T14F4 001:750 JLINK_ReadReg(R0)  returns 0x00000030 (0000ms, 0929ms total)
T14F4 001:750 JLINK_ReadReg(R1)  returns 0x2000000C (0000ms, 0929ms total)
T14F4 001:750 JLINK_ReadReg(R2)  returns 0x00000080 (0000ms, 0929ms total)
T14F4 001:750 JLINK_ReadReg(R3)  returns 0x08001DDB (0000ms, 0929ms total)
T14F4 001:751 JLINK_ReadReg(R4)  returns 0x00000000 (0000ms, 0929ms total)
T14F4 001:751 JLINK_ReadReg(R5)  returns 0x0800056D (0000ms, 0929ms total)
T14F4 001:751 JLINK_ReadReg(R6)  returns 0x00000000 (0000ms, 0929ms total)
T14F4 001:751 JLINK_ReadReg(R7)  returns 0x20004F80 (0000ms, 0929ms total)
T14F4 001:751 JLINK_ReadReg(R8)  returns 0x00000000 (0000ms, 0929ms total)
T14F4 001:751 JLINK_ReadReg(R9)  returns 0x00000000 (0000ms, 0929ms total)
T14F4 001:751 JLINK_ReadReg(R10)  returns 0x20004F2C (0000ms, 0929ms total)
T14F4 001:751 JLINK_ReadReg(R11)  returns 0x00000000 (0000ms, 0929ms total)
T14F4 001:751 JLINK_ReadReg(R12)  returns 0x00000064 (0000ms, 0929ms total)
T14F4 001:751 JLINK_ReadReg(R13)  returns 0x20004FF8 (0000ms, 0929ms total)
T14F4 001:751 JLINK_ReadReg(R14)  returns 0xFFFFFFFF (0000ms, 0929ms total)
T14F4 001:751 JLINK_ReadReg(R15)  returns 0x08000104 (0000ms, 0929ms total)
T14F4 001:751 JLINK_ReadReg(XPSR)  returns 0x01000000 (0000ms, 0929ms total)
T14F4 001:751 JLINK_ReadReg(MSP)  returns 0x20004FF8 (0000ms, 0929ms total)
T14F4 001:751 JLINK_ReadReg(PSP)  returns 0x20000800 (0000ms, 0929ms total)
T14F4 001:751 JLINK_ReadReg(CFBP)  returns 0x00000000 (0000ms, 0929ms total)
T14F4 001:765 JLINK_ReadMem (0x08000104, 0x003C Bytes, ...) -- CPU_ReadMem(64 bytes @ 0x08000100) -- Updating C cache (64 bytes @ 0x08000100) -- Read from C cache (60 bytes @ 0x08000104) -- Data:  05 48 00 47 FE E7 FE E7 FE E7 FE E7 FE E7 FE E7 ...  returns 0x00 (0001ms, 0929ms total)
T14F4 001:801 JLINK_ReadMem (0x40010800, 0x0004 Bytes, ...) -- CPU_ReadMem(4 bytes @ 0x40010800) -- Data:  44 44 44 44  returns 0x00 (0002ms, 0930ms total)
T14F4 001:803 JLINK_ReadMem (0x40010804, 0x0004 Bytes, ...) -- CPU_ReadMem(4 bytes @ 0x40010804) -- Data:  44 44 84 88  returns 0x00 (0001ms, 0932ms total)
T14F4 001:804 JLINK_ReadMem (0x40010808, 0x0004 Bytes, ...) -- CPU_ReadMem(4 bytes @ 0x40010808) -- Data:  00 00 00 00  returns 0x00 (0001ms, 0933ms total)
T14F4 001:805 JLINK_ReadMem (0x4001080C, 0x0004 Bytes, ...) -- CPU_ReadMem(4 bytes @ 0x4001080C) -- Data:  00 A0 00 00  returns 0x00 (0000ms, 0934ms total)
T14F4 001:805 JLINK_ReadMem (0x40010810, 0x0004 Bytes, ...) -- CPU_ReadMem(4 bytes @ 0x40010810) -- Data:  00 00 00 00  returns 0x00 (0001ms, 0934ms total)
T14F4 001:806 JLINK_ReadMem (0x40010814, 0x0004 Bytes, ...) -- CPU_ReadMem(4 bytes @ 0x40010814) -- Data:  00 00 00 00  returns 0x00 (0001ms, 0935ms total)
T14F4 001:807 JLINK_ReadMem (0x40010818, 0x0004 Bytes, ...) -- CPU_ReadMem(4 bytes @ 0x40010818) -- Data:  00 00 00 00  returns 0x00 (0001ms, 0936ms total)
T14F4 001:808 JLINK_ReadMem (0x40021018, 0x0004 Bytes, ...) -- CPU_ReadMem(4 bytes @ 0x40021018) -- Data:  00 00 00 00  returns 0x00 (0001ms, 0937ms total)
T14F4 001:809 JLINK_ReadMem (0x4002100C, 0x0004 Bytes, ...) -- CPU_ReadMem(4 bytes @ 0x4002100C) -- Data:  00 00 00 00  returns 0x00 (0001ms, 0938ms total)
T14F4 001:854 JLINK_ReadMem (0x40010C00, 0x0004 Bytes, ...) -- CPU_ReadMem(4 bytes @ 0x40010C00) -- Data:  44 44 48 44  returns 0x00 (0001ms, 0939ms total)
T14F4 001:855 JLINK_ReadMem (0x40010C04, 0x0004 Bytes, ...) -- CPU_ReadMem(4 bytes @ 0x40010C04) -- Data:  44 44 44 44  returns 0x00 (0001ms, 0940ms total)
T14F4 001:856 JLINK_ReadMem (0x40010C08, 0x0004 Bytes, ...) -- CPU_ReadMem(4 bytes @ 0x40010C08) -- Data:  00 00 00 00  returns 0x00 (0000ms, 0941ms total)
T14F4 001:856 JLINK_ReadMem (0x40010C0C, 0x0004 Bytes, ...) -- CPU_ReadMem(4 bytes @ 0x40010C0C) -- Data:  10 00 00 00  returns 0x00 (0001ms, 0941ms total)
T14F4 001:857 JLINK_ReadMem (0x40010C10, 0x0004 Bytes, ...) -- CPU_ReadMem(4 bytes @ 0x40010C10) -- Data:  00 00 00 00  returns 0x00 (0001ms, 0942ms total)
T14F4 001:858 JLINK_ReadMem (0x40010C14, 0x0004 Bytes, ...) -- CPU_ReadMem(4 bytes @ 0x40010C14) -- Data:  00 00 00 00  returns 0x00 (0000ms, 0943ms total)
T14F4 001:858 JLINK_ReadMem (0x40010C18, 0x0004 Bytes, ...) -- CPU_ReadMem(4 bytes @ 0x40010C18) -- Data:  00 00 00 00  returns 0x00 (0001ms, 0943ms total)
T14F4 001:859 JLINK_ReadMem (0x40021018, 0x0004 Bytes, ...) -- CPU_ReadMem(4 bytes @ 0x40021018) -- Data:  00 00 00 00  returns 0x00 (0001ms, 0944ms total)
T14F4 001:860 JLINK_ReadMem (0x4002100C, 0x0004 Bytes, ...) -- CPU_ReadMem(4 bytes @ 0x4002100C) -- Data:  00 00 00 00  returns 0x00 (0001ms, 0945ms total)
T14F4 001:887 JLINK_ReadMem (0x40011000, 0x0004 Bytes, ...) -- CPU_ReadMem(4 bytes @ 0x40011000) -- Data:  44 44 44 44  returns 0x00 (0001ms, 0946ms total)
T14F4 001:888 JLINK_ReadMem (0x40011004, 0x0004 Bytes, ...) -- CPU_ReadMem(4 bytes @ 0x40011004) -- Data:  44 44 44 44  returns 0x00 (0001ms, 0947ms total)
T14F4 001:889 JLINK_ReadMem (0x40011008, 0x0004 Bytes, ...) -- CPU_ReadMem(4 bytes @ 0x40011008) -- Data:  00 00 00 00  returns 0x00 (0000ms, 0948ms total)
T14F4 001:889 JLINK_ReadMem (0x4001100C, 0x0004 Bytes, ...) -- CPU_ReadMem(4 bytes @ 0x4001100C) -- Data:  00 00 00 00  returns 0x00 (0001ms, 0948ms total)
T14F4 001:890 JLINK_ReadMem (0x40011010, 0x0004 Bytes, ...) -- CPU_ReadMem(4 bytes @ 0x40011010) -- Data:  00 00 00 00  returns 0x00 (0001ms, 0949ms total)
T14F4 001:891 JLINK_ReadMem (0x40011014, 0x0004 Bytes, ...) -- CPU_ReadMem(4 bytes @ 0x40011014) -- Data:  00 00 00 00  returns 0x00 (0000ms, 0950ms total)
T14F4 001:891 JLINK_ReadMem (0x40011018, 0x0004 Bytes, ...) -- CPU_ReadMem(4 bytes @ 0x40011018) -- Data:  00 00 00 00  returns 0x00 (0001ms, 0950ms total)
T14F4 001:893 JLINK_ReadMem (0x40021018, 0x0004 Bytes, ...) -- CPU_ReadMem(4 bytes @ 0x40021018) -- Data:  00 00 00 00  returns 0x00 (0000ms, 0951ms total)
T14F4 001:893 JLINK_ReadMem (0x4002100C, 0x0004 Bytes, ...) -- CPU_ReadMem(4 bytes @ 0x4002100C) -- Data:  00 00 00 00  returns 0x00 (0001ms, 0951ms total)
T14F4 002:189 JLINK_ReadMem (0x00000000, 0x0132 Bytes, ...)
                JLINK_ReadMemHW(0x00000000, 0x0004 Bytes, ...) -- CPU_ReadMem(4 bytes @ 0x00000000) -- Data:  F8 4F 00 20  returns 0x00 (0001ms, 0000ms total)
                JLINK_ReadMemHW(0x08000000, 0x0004 Bytes, ...) -- CPU_ReadMem(4 bytes @ 0x08000000) -- Data:  F8 4F 00 20  returns 0x00 (0001ms, 0001ms total)
                JLINK_WriteMemHW(0x00000000, 0x0004 Bytes, ...) -- Data:  09 00 01 00 -- CPU_WriteMem(4 bytes @ 0x00000000)  returns 0x04 (0000ms, 0002ms total)
                JLINK_ReadMemHW(0x00000000, 0x0004 Bytes, ...) -- CPU_ReadMem(4 bytes @ 0x00000000) -- Data:  F8 4F 00 20  returns 0x00 (0002ms, 0002ms total)
               -- MA0 is in flash -- Unmirror addr 0x00000000 -- CPU_ReadMem(256 bytes @ 0x08000000) -- Updating C cache (256 bytes @ 0x08000000) -- Read from C cache (306 bytes @ 0x08000000) -- Data:  F8 4F 00 20 05 01 00 08 09 01 00 08 0B 01 00 08 ...  returns 0x00 (0006ms, 0952ms total)
T14F4 002:491 JLINK_ReadMem (0x00000000, 0x0264 Bytes, ...) -- Unmirror addr 0x00000000 -- CPU_ReadMem(320 bytes @ 0x08000140) -- Updating C cache (320 bytes @ 0x08000140) -- Read from C cache (612 bytes @ 0x08000000) -- Data:  F8 4F 00 20 05 01 00 08 09 01 00 08 0B 01 00 08 ...  returns 0x00 (0003ms, 0958ms total)
T0CC4 002:820 JLINK_SetBPEx(Addr = 0x080006B4, Type = 0xFFFFFFF2)  returns 0x00000001 (0000ms, 0961ms total)
T0CC4 002:820 JLINK_Go() -- CPU_WriteMem(4 bytes @ 0xE0002000) -- CPU_WriteMem(4 bytes @ 0xE0002008) -- CPU_WriteMem(4 bytes @ 0xE000200C) -- CPU_WriteMem(4 bytes @ 0xE0002010) -- CPU_WriteMem(4 bytes @ 0xE0002014) -- CPU_WriteMem(4 bytes @ 0xE0002018) -- CPU_WriteMem(4 bytes @ 0xE000201C) -- Invalidate MA0 status (0005ms, 0961ms total)
T0CC4 002:925 JLINK_IsHalted()  returns TRUE (0004ms, 0966ms total)
T0CC4 002:929 JLINK_Halt()  returns 0x00 (0000ms, 0966ms total)
T0CC4 002:929 JLINK_IsHalted()  returns TRUE (0001ms, 0966ms total)
T0CC4 002:930 JLINK_IsHalted()  returns TRUE (0000ms, 0966ms total)
T0CC4 002:930 JLINK_IsHalted()  returns TRUE (0000ms, 0966ms total)
T0CC4 002:930 JLINK_ReadReg(R15)  returns 0x080006B4 (0000ms, 0966ms total)
T0CC4 002:930 JLINK_ReadReg(XPSR)  returns 0x61000000 (0000ms, 0966ms total)
T0CC4 002:930 JLINK_ClrBPEx(BPHandle = 0x00000001)  returns 0x00 (0000ms, 0966ms total)
T0CC4 002:930 JLINK_ReadMemU32(0xE000ED30, 0x0001 Items, ...) -- CPU_ReadMem(4 bytes @ 0xE000ED30) -- Data:  03 00 00 00  returns 0x01 (0001ms, 0966ms total)
T0CC4 002:931 JLINK_ReadMemU32(0xE0001028, 0x0001 Items, ...) -- CPU_ReadMem(4 bytes @ 0xE0001028) -- Data:  01 00 00 40  returns 0x01 (0001ms, 0967ms total)
T0CC4 002:932 JLINK_ReadMemU32(0xE0001038, 0x0001 Items, ...) -- CPU_ReadMem(4 bytes @ 0xE0001038) -- Data:  01 00 00 40  returns 0x01 (0001ms, 0968ms total)
T0CC4 002:933 JLINK_ReadMemU32(0xE0001048, 0x0001 Items, ...) -- CPU_ReadMem(4 bytes @ 0xE0001048) -- Data:  01 00 00 40  returns 0x01 (0001ms, 0969ms total)
T0CC4 002:934 JLINK_ReadMemU32(0xE0001058, 0x0001 Items, ...) -- CPU_ReadMem(4 bytes @ 0xE0001058) -- Data:  01 00 00 40  returns 0x01 (0001ms, 0970ms total)
T0CC4 002:935 JLINK_ReadReg(R0)  returns 0x080006B5 (0000ms, 0971ms total)
T0CC4 002:935 JLINK_ReadReg(R1)  returns 0x20004FF8 (0000ms, 0971ms total)
T0CC4 002:935 JLINK_ReadReg(R2)  returns 0x00000000 (0000ms, 0971ms total)
T0CC4 002:935 JLINK_ReadReg(R3)  returns 0x080076C9 (0000ms, 0971ms total)
T0CC4 002:935 JLINK_ReadReg(R4)  returns 0x080093AC (0000ms, 0971ms total)
T0CC4 002:935 JLINK_ReadReg(R5)  returns 0x080093AC (0001ms, 0971ms total)
T0CC4 002:936 JLINK_ReadReg(R6)  returns 0x00000000 (0000ms, 0972ms total)
T0CC4 002:936 JLINK_ReadReg(R7)  returns 0x20004F80 (0000ms, 0972ms total)
T0CC4 002:936 JLINK_ReadReg(R8)  returns 0x00000000 (0000ms, 0972ms total)
T0CC4 002:936 JLINK_ReadReg(R9)  returns 0x00000000 (0000ms, 0972ms total)
T0CC4 002:936 JLINK_ReadReg(R10)  returns 0x20004F2C (0000ms, 0972ms total)
T0CC4 002:936 JLINK_ReadReg(R11)  returns 0x00000000 (0000ms, 0972ms total)
T0CC4 002:936 JLINK_ReadReg(R12)  returns 0x00000064 (0000ms, 0972ms total)
T0CC4 002:936 JLINK_ReadReg(R13)  returns 0x20004FF8 (0000ms, 0972ms total)
T0CC4 002:936 JLINK_ReadReg(R14)  returns 0x0800745D (0000ms, 0972ms total)
T0CC4 002:936 JLINK_ReadReg(R15)  returns 0x080006B4 (0000ms, 0972ms total)
T0CC4 002:936 JLINK_ReadReg(XPSR)  returns 0x61000000 (0000ms, 0972ms total)
T0CC4 002:936 JLINK_ReadReg(MSP)  returns 0x20004FF8 (0000ms, 0972ms total)
T0CC4 002:936 JLINK_ReadReg(PSP)  returns 0x20000800 (0000ms, 0972ms total)
T0CC4 002:936 JLINK_ReadReg(CFBP)  returns 0x00000000 (0000ms, 0972ms total)
T14F4 002:939 JLINK_ReadMem (0x40010800, 0x0004 Bytes, ...) -- CPU_ReadMem(4 bytes @ 0x40010800) -- Data:  44 44 44 44  returns 0x00 (0001ms, 0972ms total)
T14F4 002:940 JLINK_ReadMem (0x40010804, 0x0004 Bytes, ...) -- CPU_ReadMem(4 bytes @ 0x40010804) -- Data:  44 44 84 88  returns 0x00 (0001ms, 0973ms total)
T14F4 002:941 JLINK_ReadMem (0x40010808, 0x0004 Bytes, ...) -- CPU_ReadMem(4 bytes @ 0x40010808) -- Data:  00 00 00 00  returns 0x00 (0001ms, 0974ms total)
T14F4 002:942 JLINK_ReadMem (0x4001080C, 0x0004 Bytes, ...) -- CPU_ReadMem(4 bytes @ 0x4001080C) -- Data:  00 A0 00 00  returns 0x00 (0001ms, 0975ms total)
T14F4 002:943 JLINK_ReadMem (0x40010810, 0x0004 Bytes, ...) -- CPU_ReadMem(4 bytes @ 0x40010810) -- Data:  00 00 00 00  returns 0x00 (0001ms, 0976ms total)
T14F4 002:944 JLINK_ReadMem (0x40010814, 0x0004 Bytes, ...) -- CPU_ReadMem(4 bytes @ 0x40010814) -- Data:  00 00 00 00  returns 0x00 (0001ms, 0977ms total)
T14F4 002:945 JLINK_ReadMem (0x40010818, 0x0004 Bytes, ...) -- CPU_ReadMem(4 bytes @ 0x40010818) -- Data:  00 00 00 00  returns 0x00 (0001ms, 0978ms total)
T14F4 002:946 JLINK_ReadMem (0x40021018, 0x0004 Bytes, ...) -- CPU_ReadMem(4 bytes @ 0x40021018) -- Data:  00 00 00 00  returns 0x00 (0001ms, 0979ms total)
T14F4 002:947 JLINK_ReadMem (0x4002100C, 0x0004 Bytes, ...) -- CPU_ReadMem(4 bytes @ 0x4002100C) -- Data:  00 00 00 00  returns 0x00 (0001ms, 0980ms total)
T14F4 002:948 JLINK_ReadMem (0x40010C00, 0x0004 Bytes, ...) -- CPU_ReadMem(4 bytes @ 0x40010C00) -- Data:  44 44 48 44  returns 0x00 (0001ms, 0981ms total)
T14F4 002:949 JLINK_ReadMem (0x40010C04, 0x0004 Bytes, ...) -- CPU_ReadMem(4 bytes @ 0x40010C04) -- Data:  44 44 44 44  returns 0x00 (0001ms, 0982ms total)
T14F4 002:950 JLINK_ReadMem (0x40010C08, 0x0004 Bytes, ...) -- CPU_ReadMem(4 bytes @ 0x40010C08) -- Data:  00 00 00 00  returns 0x00 (0000ms, 0983ms total)
T14F4 002:950 JLINK_ReadMem (0x40010C0C, 0x0004 Bytes, ...) -- CPU_ReadMem(4 bytes @ 0x40010C0C) -- Data:  10 00 00 00  returns 0x00 (0001ms, 0983ms total)
T14F4 002:951 JLINK_ReadMem (0x40010C10, 0x0004 Bytes, ...) -- CPU_ReadMem(4 bytes @ 0x40010C10) -- Data:  00 00 00 00  returns 0x00 (0001ms, 0984ms total)
T14F4 002:952 JLINK_ReadMem (0x40010C14, 0x0004 Bytes, ...) -- CPU_ReadMem(4 bytes @ 0x40010C14) -- Data:  00 00 00 00  returns 0x00 (0001ms, 0985ms total)
T14F4 002:953 JLINK_ReadMem (0x40010C18, 0x0004 Bytes, ...) -- CPU_ReadMem(4 bytes @ 0x40010C18) -- Data:  00 00 00 00  returns 0x00 (0001ms, 0986ms total)
T14F4 002:954 JLINK_ReadMem (0x40021018, 0x0004 Bytes, ...) -- CPU_ReadMem(4 bytes @ 0x40021018) -- Data:  00 00 00 00  returns 0x00 (0001ms, 0987ms total)
T14F4 002:955 JLINK_ReadMem (0x4002100C, 0x0004 Bytes, ...) -- CPU_ReadMem(4 bytes @ 0x4002100C) -- Data:  00 00 00 00  returns 0x00 (0001ms, 0988ms total)
T14F4 002:956 JLINK_ReadMem (0x40011000, 0x0004 Bytes, ...) -- CPU_ReadMem(4 bytes @ 0x40011000) -- Data:  44 44 44 44  returns 0x00 (0001ms, 0989ms total)
T14F4 002:957 JLINK_ReadMem (0x40011004, 0x0004 Bytes, ...) -- CPU_ReadMem(4 bytes @ 0x40011004) -- Data:  44 44 44 44  returns 0x00 (0001ms, 0990ms total)
T14F4 002:958 JLINK_ReadMem (0x40011008, 0x0004 Bytes, ...) -- CPU_ReadMem(4 bytes @ 0x40011008) -- Data:  00 00 00 00  returns 0x00 (0001ms, 0991ms total)
T14F4 002:959 JLINK_ReadMem (0x4001100C, 0x0004 Bytes, ...) -- CPU_ReadMem(4 bytes @ 0x4001100C) -- Data:  00 00 00 00  returns 0x00 (0001ms, 0992ms total)
T14F4 002:960 JLINK_ReadMem (0x40011010, 0x0004 Bytes, ...) -- CPU_ReadMem(4 bytes @ 0x40011010) -- Data:  00 00 00 00  returns 0x00 (0001ms, 0993ms total)
T14F4 002:961 JLINK_ReadMem (0x40011014, 0x0004 Bytes, ...) -- CPU_ReadMem(4 bytes @ 0x40011014) -- Data:  00 00 00 00  returns 0x00 (0001ms, 0994ms total)
T14F4 002:962 JLINK_ReadMem (0x40011018, 0x0004 Bytes, ...) -- CPU_ReadMem(4 bytes @ 0x40011018) -- Data:  00 00 00 00  returns 0x00 (0001ms, 0995ms total)
T14F4 002:963 JLINK_ReadMem (0x40021018, 0x0004 Bytes, ...) -- CPU_ReadMem(4 bytes @ 0x40021018) -- Data:  00 00 00 00  returns 0x00 (0000ms, 0996ms total)
T14F4 002:963 JLINK_ReadMem (0x4002100C, 0x0004 Bytes, ...) -- CPU_ReadMem(4 bytes @ 0x4002100C) -- Data:  00 00 00 00  returns 0x00 (0001ms, 0996ms total)
T14F4 003:044 JLINK_ReadMem (0x080006B4, 0x003C Bytes, ...) -- CPU_ReadMem(128 bytes @ 0x08000680) -- Updating C cache (128 bytes @ 0x08000680) -- Read from C cache (60 bytes @ 0x080006B4) -- Data:  7C B5 3C 21 50 20 01 F0 2F F9 06 46 0D 21 05 20 ...  returns 0x00 (0002ms, 0997ms total)
T14F4 020:288 JLINK_ReadMem (0x4001100C, 0x0004 Bytes, ...) -- CPU_ReadMem(4 bytes @ 0x4001100C) -- Data:  00 00 00 00  returns 0x00 (0001ms, 0999ms total)
T14F4 020:289 JLINK_WriteMem(0x4001100C, 0x0004 Bytes, ...) -- Data:  00 80 00 00 -- CPU_WriteMem(4 bytes @ 0x4001100C)  returns 0x04 (0001ms, 1000ms total)
T14F4 020:290 JLINK_ReadMem (0x40010800, 0x0004 Bytes, ...) -- CPU_ReadMem(4 bytes @ 0x40010800) -- Data:  44 44 44 44  returns 0x00 (0000ms, 1001ms total)
T14F4 020:291 JLINK_ReadMem (0x40010804, 0x0004 Bytes, ...) -- CPU_ReadMem(4 bytes @ 0x40010804) -- Data:  44 44 84 88  returns 0x00 (0000ms, 1002ms total)
T14F4 020:291 JLINK_ReadMem (0x40010808, 0x0004 Bytes, ...) -- CPU_ReadMem(4 bytes @ 0x40010808) -- Data:  00 00 00 00  returns 0x00 (0001ms, 1002ms total)
T14F4 020:292 JLINK_ReadMem (0x4001080C, 0x0004 Bytes, ...) -- CPU_ReadMem(4 bytes @ 0x4001080C) -- Data:  00 A0 00 00  returns 0x00 (0000ms, 1003ms total)
T14F4 020:292 JLINK_ReadMem (0x40010810, 0x0004 Bytes, ...) -- CPU_ReadMem(4 bytes @ 0x40010810) -- Data:  00 00 00 00  returns 0x00 (0001ms, 1003ms total)
T14F4 020:293 JLINK_ReadMem (0x40010814, 0x0004 Bytes, ...) -- CPU_ReadMem(4 bytes @ 0x40010814) -- Data:  00 00 00 00  returns 0x00 (0001ms, 1004ms total)
T14F4 020:294 JLINK_ReadMem (0x40010818, 0x0004 Bytes, ...) -- CPU_ReadMem(4 bytes @ 0x40010818) -- Data:  00 00 00 00  returns 0x00 (0000ms, 1005ms total)
T14F4 020:294 JLINK_ReadMem (0x40021018, 0x0004 Bytes, ...) -- CPU_ReadMem(4 bytes @ 0x40021018) -- Data:  00 00 00 00  returns 0x00 (0001ms, 1005ms total)
T14F4 020:295 JLINK_ReadMem (0x4002100C, 0x0004 Bytes, ...) -- CPU_ReadMem(4 bytes @ 0x4002100C) -- Data:  00 00 00 00  returns 0x00 (0001ms, 1006ms total)
T14F4 020:296 JLINK_ReadMem (0x40010C00, 0x0004 Bytes, ...) -- CPU_ReadMem(4 bytes @ 0x40010C00) -- Data:  44 44 48 44  returns 0x00 (0001ms, 1007ms total)
T14F4 020:297 JLINK_ReadMem (0x40010C04, 0x0004 Bytes, ...) -- CPU_ReadMem(4 bytes @ 0x40010C04) -- Data:  44 44 44 44  returns 0x00 (0000ms, 1008ms total)
T14F4 020:297 JLINK_ReadMem (0x40010C08, 0x0004 Bytes, ...) -- CPU_ReadMem(4 bytes @ 0x40010C08) -- Data:  00 00 00 00  returns 0x00 (0001ms, 1008ms total)
T14F4 020:298 JLINK_ReadMem (0x40010C0C, 0x0004 Bytes, ...) -- CPU_ReadMem(4 bytes @ 0x40010C0C) -- Data:  10 00 00 00  returns 0x00 (0000ms, 1009ms total)
T14F4 020:298 JLINK_ReadMem (0x40010C10, 0x0004 Bytes, ...) -- CPU_ReadMem(4 bytes @ 0x40010C10) -- Data:  00 00 00 00  returns 0x00 (0001ms, 1009ms total)
T14F4 020:299 JLINK_ReadMem (0x40010C14, 0x0004 Bytes, ...) -- CPU_ReadMem(4 bytes @ 0x40010C14) -- Data:  00 00 00 00  returns 0x00 (0001ms, 1010ms total)
T14F4 020:300 JLINK_ReadMem (0x40010C18, 0x0004 Bytes, ...) -- CPU_ReadMem(4 bytes @ 0x40010C18) -- Data:  00 00 00 00  returns 0x00 (0000ms, 1011ms total)
T14F4 020:300 JLINK_ReadMem (0x40021018, 0x0004 Bytes, ...) -- CPU_ReadMem(4 bytes @ 0x40021018) -- Data:  00 00 00 00  returns 0x00 (0001ms, 1011ms total)
T14F4 020:301 JLINK_ReadMem (0x4002100C, 0x0004 Bytes, ...) -- CPU_ReadMem(4 bytes @ 0x4002100C) -- Data:  00 00 00 00  returns 0x00 (0001ms, 1012ms total)
T14F4 020:302 JLINK_ReadMem (0x40011000, 0x0004 Bytes, ...) -- CPU_ReadMem(4 bytes @ 0x40011000) -- Data:  44 44 44 44  returns 0x00 (0001ms, 1013ms total)
T14F4 020:303 JLINK_ReadMem (0x40011004, 0x0004 Bytes, ...) -- CPU_ReadMem(4 bytes @ 0x40011004) -- Data:  44 44 44 44  returns 0x00 (0001ms, 1014ms total)
T14F4 020:304 JLINK_ReadMem (0x40011008, 0x0004 Bytes, ...) -- CPU_ReadMem(4 bytes @ 0x40011008) -- Data:  00 00 00 00  returns 0x00 (0000ms, 1015ms total)
T14F4 020:304 JLINK_ReadMem (0x4001100C, 0x0004 Bytes, ...) -- CPU_ReadMem(4 bytes @ 0x4001100C) -- Data:  00 00 00 00  returns 0x00 (0001ms, 1015ms total)
T14F4 020:305 JLINK_ReadMem (0x40011010, 0x0004 Bytes, ...) -- CPU_ReadMem(4 bytes @ 0x40011010) -- Data:  00 00 00 00  returns 0x00 (0001ms, 1016ms total)
T14F4 020:306 JLINK_ReadMem (0x40011014, 0x0004 Bytes, ...) -- CPU_ReadMem(4 bytes @ 0x40011014) -- Data:  00 00 00 00  returns 0x00 (0000ms, 1017ms total)
T14F4 020:306 JLINK_ReadMem (0x40011018, 0x0004 Bytes, ...) -- CPU_ReadMem(4 bytes @ 0x40011018) -- Data:  00 00 00 00  returns 0x00 (0001ms, 1017ms total)
